<Qucs Dataset 0.0.19>
<indep acfrequency 6>
  +8.30000000000000000000e+001
  +1.10000000000000000000e+002
  +1.46000000000000000000e+002
  +1.96000000000000000000e+002
  +2.46000000000000000000e+002
  +3.29000000000000000000e+002
</indep>
<dep K acfrequency>
  -1.54402010095401919898e+002
  -1.35557438271506839556e+002
  -1.08284365647896407836e+002
  -2.47962778496561178088e+001
  -7.12053813953813516946e+001
  -1.18405733224852269814e+002
</dep>
<dep V1.i acfrequency>
  -6.24803684874166542068e-006-j4.88211435166042388927e-012
  -6.24774896454088609564e-006-j8.56718706626468020711e-012
  -6.24696076361118481947e-006-j2.09859175985768540658e-011
  -6.24132795700686472369e-006-j2.34746672083143421286e-010
  -6.25620470046054115762e-006-j1.55140160066948078147e-010
  -6.25131965748356626181e-006-j9.94572573324307192570e-012
</dep>
<dep _net5.v acfrequency>
  +8.13612325668398311992e-007+j6.79700168505476107119e-005
  +4.55633630810484986363e-006+j2.47963470762335659505e-004
  +5.43448176769276657377e-005+j1.59944515934636218024e-003
  +1.93192192439202131693e-001+j5.60938045442070931657e-001
  +2.55066753929417871019e-003-j2.63752879851132902844e-002
  +2.62354649487727321791e-005-j8.93095432710172163968e-004
</dep>
<dep _net12.v acfrequency>
  +7.72061281658330279760e-010+j4.07008534438431445544e-008
  +5.05656333154905400584e-009+j1.73125382776889479985e-007
  +8.59765671041502121452e-008+j1.58028371252189165295e-006
  +1.11706958942691097353e-003+j2.30211480833788064218e-003
  -4.78720064456279314081e-006+j3.36450951720169421657e-005
  -1.36930957372489435333e-008+j3.01690250102607775112e-007
</dep>
<dep _net3.v acfrequency>
  -2.33217295587687112324e-003+j1.30609820453221477609e-005
  -5.59462934672429797883e-003+j4.85961057681384223442e-005
  -2.01000017661434431104e-002+j3.33015815434349908217e-004
  -1.85045531408924923689e+000+j5.00192523864822713442e-001
  -9.93518093542060665158e-002-j3.79033188628756555552e-003
  -1.16125543096634014500e-002-j1.45793797630603755777e-004
</dep>
<dep _net11.v acfrequency>
  -1.26049054603154589088e-006+j1.50203002263320784185e-008
  -3.46972950293912710880e-006+j6.35083378293440076930e-008
  -1.68623432265365633944e-005+j5.71335493896137924163e-007
  -4.40532444275862095778e-003+j1.51660654808687990480e-003
  +1.65027156997873811943e-004+j1.59858567010017652910e-005
  +4.17829664993221174506e-006+j1.23635010338534311369e-007
</dep>
<dep _net1.v acfrequency>
  -1.13136700318372204234e-004-j4.31138692523519301281e-002
  -2.61272342611567590272e-004-j6.55179059068748403938e-002
  -8.39058948576617701261e-004-j1.17409135008304771342e-001
  -1.23199848798105880687e-002-j4.49737331969010500909e-001
  -9.93391252844333903782e-003+j4.03873701508686455686e-001
  -8.03296555588607890525e-004+j1.14879907388758709108e-001
</dep>
<dep _net10.v acfrequency>
  -8.36144384534129754572e-008-j1.53466663281300337422e-005
  -2.35695636527308342183e-007-j2.77786037128172023643e-005
  -1.22568478201898987979e-006-j7.51927869287203687939e-005
  -1.39198704063807029464e-003-j5.15698270336316204332e-003
  +8.51472054943641835467e-006-j2.20579033492782105360e-004
  +2.53645323154894452925e-007-j1.92778942779390901816e-005
</dep>
<dep _net8.v acfrequency>
  +5.30449461439242672146e-016+j1.90428114889971467935e-014
  +7.16513125660795362828e-015+j1.66619911232390696129e-013
  +3.10036567487708347837e-013+j3.84035209582222605790e-012
  +3.40367502125919376259e-008+j4.64289785376962614436e-008
  +5.27265628347102189525e-011-j2.70155009250051511740e-010
  +7.69335698221572359170e-014-j1.19900546123665404110e-012
</dep>
<dep out.v acfrequency>
  -5.30449461439242605251e-010-j1.90428114889971462264e-008
  -7.16513125660795097064e-009-j1.66619911232390649661e-007
  -3.10036567487708365666e-007-j3.84035209582222682330e-006
  -3.40367502125919416112e-002-j4.64289785376962652053e-002
  -5.27265628347102106584e-005+j2.70155009250051521361e-004
  -7.69335698221572216029e-008+j1.19900546123665389836e-006
</dep>
<dep _net13.v acfrequency>
  +4.31622138811791626180e-010-j1.20040478877822753044e-011
  +2.84961054021725234196e-009-j1.22374450125029858399e-010
  +4.94847193822754676112e-008-j3.99109970415316912234e-009
  +4.45673108153654652045e-004-j3.26648368883862170661e-004
  -2.06593682348077192914e-006-j4.03492468482632783523e-007
  -6.85599658880391855940e-009-j4.41115442952154539391e-010
</dep>
<dep _net7.v acfrequency>
  +2.19473017944511224067e-006-j4.17505932953912131637e-008
  +1.23723585085506842374e-005-j3.62250871789820253343e-007
  +1.49894482631113918833e-004-j8.16938631777049367299e-006
  +2.93127240958316936936e-001-j1.42282084842979328343e-001
  +5.37733020314100969989e-003+j7.64237959300447531122e-004
  +6.44853912631293210451e-005+j2.91304669074888518746e-006
</dep>
<dep _net6.v acfrequency>
  -2.19473017944499272962e-012+j4.17505932995040676659e-014
  -1.23723585085501325543e-011+j3.62250871772761803878e-013
  -1.49894482631138575962e-010+j8.16938631763216302831e-012
  -2.93127240958606163912e-007+j1.42282084842747930109e-007
  -5.37733020314100924593e-009-j7.64237959300447514717e-010
  -6.44853912631254649276e-011-j2.91304669076437064380e-012
</dep>
<dep _net4.v acfrequency>
  -8.13612325290184019121e-013-j6.79700168505439494120e-011
  -4.55633630851219563127e-012-j2.47963470762351562125e-010
  -5.43448176745591447767e-011-j1.59944515934639190771e-009
  -1.93192192438074172856e-007-j5.60938045442464436330e-007
  -2.55066753929417840928e-009+j2.63752879851132888354e-008
  -2.62354649486486960624e-011+j8.93095432710176480447e-010
</dep>
<dep _net2.v acfrequency>
  +2.33217295587687871265e-009-j1.30609820444345554880e-011
  +5.59462934672435644443e-009-j4.85961057669853733337e-011
  +2.01000017661433439059e-008-j3.33015815430818228060e-010
  +1.85045531408902126647e-006-j5.00192523867140637073e-007
  +9.93518093542048764955e-008+j3.79033188632727467693e-009
  +1.16125543096634759923e-008+j1.45793797631229909637e-010
</dep>
<dep _net0.v acfrequency>
  +1.13136700312030380466e-010+j4.31138692523519461065e-008
  +2.61272342628147968835e-010+j6.55179059068748630672e-008
  +8.39058948568557200209e-010+j1.17409135008304551933e-007
  +1.23199848798105881639e-008+j4.49737331969010464833e-007
  +9.93391252844333829307e-009-j4.03873701508686438399e-007
  +8.03296555588607832516e-010-j1.14879907388758702101e-007
</dep>
<dep _net9.v acfrequency>
  +3.14104201333632220353e-004-j7.81138296265667891766e-007
  +3.60165673458285034037e-004-j1.37074993060234876614e-006
  +4.86277822210455935425e-004-j3.35774681577229684243e-006
  +1.38752687890159129985e-003-j3.75594675333029430118e-005
  -9.92752073686627937305e-004-j2.48224256107116932513e-005
  -2.11145197370534722873e-004-j1.59131611731889120991e-006
</dep>
<dep in.v acfrequency>
  +1.00000000000000000000e+000
  +1.00000000000000000000e+000
  +1.00000000000000000000e+000
  +1.00000000000000000000e+000
  +1.00000000000000000000e+000
  +1.00000000000000000000e+000
</dep>
<indep V1.I 1>
  +0.00000000000000000000e+000
</indep>
<indep _net5.V 1>
  +0.00000000000000000000e+000
</indep>
<indep _net12.V 1>
  +0.00000000000000000000e+000
</indep>
<indep _net3.V 1>
  +0.00000000000000000000e+000
</indep>
<indep _net11.V 1>
  +0.00000000000000000000e+000
</indep>
<indep _net1.V 1>
  +0.00000000000000000000e+000
</indep>
<indep _net10.V 1>
  +0.00000000000000000000e+000
</indep>
<indep _net8.V 1>
  +0.00000000000000000000e+000
</indep>
<indep out.V 1>
  +0.00000000000000000000e+000
</indep>
<indep _net13.V 1>
  +0.00000000000000000000e+000
</indep>
<indep _net7.V 1>
  +0.00000000000000000000e+000
</indep>
<indep _net6.V 1>
  +0.00000000000000000000e+000
</indep>
<indep _net4.V 1>
  +0.00000000000000000000e+000
</indep>
<indep _net2.V 1>
  +0.00000000000000000000e+000
</indep>
<indep _net0.V 1>
  +0.00000000000000000000e+000
</indep>
<indep _net9.V 1>
  +0.00000000000000000000e+000
</indep>
<indep in.V 1>
  +0.00000000000000000000e+000
</indep>
